Freq.	V(vout2)
1.00000000000000e+00	(5.81694185374492e-03dB,-3.78746648629283e+00°)
1.02329299228075e+00	(6.37604046267815e-03dB,-3.87607105396663e+00°)
1.04712854805090e+00	(6.96130427481612e-03dB,-3.96676690627539e+00°)
1.07151930523761e+00	(7.57394854387221e-03dB,-4.05960471856305e+00°)
1.09647819614318e+00	(8.21524405838199e-03dB,-4.15463648719846e+00°)
1.12201845430196e+00	(8.88651958927144e-03dB,-4.25191557043405e+00°)
1.14815362149688e+00	(9.58916443604057e-03dB,-4.35149673094120e+00°)
1.17489755493953e+00	(1.03246310746053e-02dB,-4.45343618011332e+00°)
1.20226443461741e+00	(1.10944379098212e-02dB,-4.55779162423419e+00°)
1.23026877081238e+00	(1.19001721354811e-02dB,-4.66462231261485e+00°)
1.25892541179417e+00	(1.27434927048619e-02dB,-4.77398908780929e+00°)
1.28824955169313e+00	(1.36261334143550e-02dB,-4.88595443802652e+00°)
1.31825673855641e+00	(1.45499061030266e-02dB,-5.00058255186428e+00°)
1.34896288259165e+00	(1.55167039705427e-02dB,-5.11793937549768e+00°)
1.38038426460288e+00	(1.65285050157816e-02dB,-5.23809267246549e+00°)
1.41253754462275e+00	(1.75873755982998e-02dB,-5.36111208620560e+00°)
1.44543977074593e+00	(1.86954741244490e-02dB,-5.48706920550189e+00°)
1.47910838816821e+00	(1.98550548597121e-02dB,-5.61603763301536e+00°)
1.51356124843621e+00	(2.10684718683751e-02dB,-5.74809305708397e+00°)
1.54881661891248e+00	(2.23381830813077e-02dB,-5.88331332698837e+00°)
1.58489319246111e+00	(2.36667544920076e-02dB,-6.02177853189368e+00°)
1.62181009735893e+00	(2.50568644806020e-02dB,-6.16357108369205e+00°)
1.65958690743756e+00	(2.65113082646146e-02dB,-6.30877580398612e+00°)
1.69824365246174e+00	(2.80330024748057e-02dB,-6.45748001546940e+00°)
1.73780082874937e+00	(2.96249898531724e-02dB,-6.60977363797774e+00°)
1.77827941003892e+00	(3.12904440694471e-02dB,-6.76574928950451e+00°)
1.81970085860998e+00	(3.30326746510204e-02dB,-6.92550239249224e+00°)
1.86208713666287e+00	(3.48551320200575e-02dB,-7.08913128573515e+00°)
1.90546071796325e+00	(3.67614126298969e-02dB,-7.25673734224998e+00°)
1.94984459975804e+00	(3.87552641912688e-02dB,-7.42842509349718e+00°)
1.99526231496888e+00	(4.08405909765367e-02dB,-7.60430236036114e+00°)
2.04173794466953e+00	(4.30214591886292e-02dB,-7.78448039132594e+00°)
2.08929613085404e+00	(4.53021023779044e-02dB,-7.96907400831408e+00°)
2.13796208950223e+00	(4.76869268882400e-02dB,-8.15820176068719e+00°)
2.18776162394955e+00	(5.01805173096973e-02dB,-8.35198608794300e+00°)
2.23872113856834e+00	(5.27876419121497e-02dB,-8.55055349167922e+00°)
2.29086765276777e+00	(5.55132580296253e-02dB,-8.75403471743499e+00°)
2.34422881531992e+00	(5.83625173609014e-02dB,-8.96256494706228e+00°)
2.39883291901949e+00	(6.13407711466378e-02dB,-9.17628400232509e+00°)
2.45470891568503e+00	(6.44535751774648e-02dB,-9.39533656047169e+00°)
2.51188643150958e+00	(6.77066945811345e-02dB,-9.61987238257687e+00°)
2.57039578276886e+00	(7.11061083290570e-02dB,-9.85004655550556e+00°)
2.63026799189538e+00	(7.46580133950559e-02dB,-1.00860197484066e+01°)
2.69153480392691e+00	(7.83688284891775e-02dB,-1.03279584847077e+01°)
2.75422870333816e+00	(8.22451972794831e-02dB,-1.05760354306478e+01°)
2.81838293126445e+00	(8.62939910029497e-02dB,-1.08304297014520e+01°)
2.88403150312660e+00	(9.05223103535517e-02dB,-1.10913271863275e+01°)
2.95120922666638e+00	(9.49374865208201e-02dB,-1.13589208935381e+01°)
3.01995172040201e+00	(9.95470812358810e-02dB,-1.16334113168927e+01°)
3.09029543251359e+00	(1.04358885663298e-01dB,-1.19150068250726e+01°)
3.16227766016837e+00	(1.09380917956373e-01dB,-1.22039240753108e+01°)
3.23593656929628e+00	(1.14621419270306e-01dB,-1.25003884530291e+01°)
3.31131121482591e+00	(1.20088848001433e-01dB,-1.28046345391386e+01°)
3.38844156139202e+00	(1.25791871991468e-01dB,-1.31169066068068e+01°)
3.46736850452531e+00	(1.31739358402765e-01dB,-1.34374591496018e+01°)
3.54813389233575e+00	(1.37940360933879e-01dB,-1.37665574430262e+01°)
3.63078054770101e+00	(1.44404104003123e-01dB,-1.41044781415630e+01°)
3.71535229097172e+00	(1.51139963481569e-01dB,-1.44515099134605e+01°)
3.80189396320560e+00	(1.58157443505070e-01dB,-1.48079541155892e+01°)
3.89045144994280e+00	(1.65466148836170e-01dB,-1.51741255108059e+01°)
3.98107170553496e+00	(1.73075752182005e-01dB,-1.55503530303542e+01°)
4.07380277804112e+00	(1.80995955800720e-01dB,-1.59369805839174e+01°)
4.16869383470335e+00	(1.89236446647107e-01dB,-1.63343679200137e+01°)
4.26579518801592e+00	(1.97806844216574e-01dB,-1.67428915394753e+01°)
4.36515832240165e+00	(2.06716640143891e-01dB,-1.71629456647887e+01°)
4.46683592150962e+00	(2.15975128498604e-01dB,-1.75949432680697e+01°)
4.57088189614874e+00	(2.25591325590932e-01dB,-1.80393171604082e+01°)
4.67735141287197e+00	(2.35573877959343e-01dB,-1.84965211452276e+01°)
4.78630092322637e+00	(2.45930957051699e-01dB,-1.89670312381500e+01°)
4.89778819368445e+00	(2.56670138935214e-01dB,-1.94513469556241e+01°)
5.01187233627271e+00	(2.67798267173649e-01dB,-1.99499926742457e+01°)
5.12861383991364e+00	(2.79321296792589e-01dB,-2.04635190622451e+01°)
5.24807460249771e+00	(2.91244117012809e-01dB,-2.09925045840242e+01°)
5.37031796370252e+00	(3.03570350166263e-01dB,-2.15375570778444e+01°)
5.49540873857623e+00	(3.16302123917880e-01dB,-2.20993154057750e+01°)
5.62341325190348e+00	(3.29439813596946e-01dB,-2.26784511737576e+01°)
5.75439937337156e+00	(3.42981751095109e-01dB,-2.32756705180658e+01°)
5.88843655355588e+00	(3.56923896411752e-01dB,-2.38917159524951e+01°)
6.02559586074356e+00	(3.71259467523994e-01dB,-2.45273682682115e+01°)
6.16595001861481e+00	(3.85978523828598e-01dB,-2.51834484752523e+01°)
6.30957344480192e+00	(4.01067497950443e-01dB,-2.58608197710947e+01°)
6.45654229034654e+00	(4.16508670242561e-01dB,-2.65603895173828e+01°)
6.60693448007594e+00	(4.32279579824546e-01dB,-2.72831112006998e+01°)
6.76082975391980e+00	(4.48352365531422e-01dB,-2.80299863470368e+01°)
6.91830970918935e+00	(4.64693029691297e-01dB,-2.88020663521901e+01°)
7.07945784384136e+00	(4.81260617240209e-01dB,-2.96004541815245e+01°)
7.24435960074988e+00	(4.98006302347371e-01dB,-3.04263058821850e+01°)
7.41310241300916e+00	(5.14872374503745e-01dB,-3.12808318387239e+01°)
7.58577575029182e+00	(5.31791115974836e-01dB,-3.21652976890146e+01°)
7.76247116628690e+00	(5.48683562698667e-01dB,-3.30810248010830e+01°)
7.94328234724279e+00	(5.65458141208401e-01dB,-3.40293901929046e+01°)
8.12830516164097e+00	(5.82009175075859e-01dB,-3.50118257562007e+01°)
8.31763771102669e+00	(5.98215255835438e-01dB,-3.60298166217802e+01°)
8.51138038202374e+00	(6.13937475505861e-01dB,-3.70848984781232e+01°)
8.70963589956078e+00	(6.29017520858453e-01dB,-3.81786536269710e+01°)
8.91250938133743e+00	(6.43275633688404e-01dB,-3.93127055302546e+01°)
9.12010839355907e+00	(6.56508446757549e-01dB,-4.04887115726423e+01°)
9.33254300796988e+00	(6.68486712040061e-01dB,-4.17083537347416e+01°)
9.54992586021433e+00	(6.78952946668066e-01dB,-4.29733268454917e+01°)
9.77237220955808e+00	(6.87619032781563e-01dB,-4.42853240612875e+01°)
9.99999999999997e+00	(6.94163820532900e-01dB,-4.56460192074318e+01°)
1.02329299228075e+01	(6.98230798892228e-01dB,-4.70570456192280e+01°)
1.04712854805090e+01	(6.99425916619033e-01dB,-4.85199711410073e+01°)
1.07151930523760e+01	(6.97315655563943e-01dB,-5.00362689882980e+01°)
1.09647819614318e+01	(6.91425479803667e-01dB,-5.16072842586849e+01°)
1.12201845430196e+01	(6.81238806050540e-01dB,-5.32341959986411e+01°)
1.14815362149688e+01	(6.66196661879530e-01dB,-5.49179749044244e+01°)
1.17489755493953e+01	(6.45698216559851e-01dB,-5.66593369614432e+01°)
1.20226443461741e+01	(6.19102382017608e-01dB,-5.84586936118855e+01°)
1.23026877081238e+01	(5.85730685437961e-01dB,-6.03160993838264e+01°)
1.25892541179416e+01	(5.44871606526550e-01dB,-6.22311983085415e+01°)
1.28824955169313e+01	(4.95786547598100e-01dB,-6.42031708793810e+01°)
1.31825673855640e+01	(4.37717559855428e-01dB,-6.62306837373852e+01°)
1.34896288259165e+01	(3.69896881834089e-01dB,-6.83118446661894e+01°)
1.38038426460288e+01	(2.91558255160895e-01dB,-7.04441657910672e+01°)
1.41253754462275e+01	(2.01949870301117e-01dB,-7.26245380459514e+01°)
1.44543977074592e+01	(1.00348666036547e-01dB,-7.48492199381916e+01°)
1.47910838816820e+01	(-1.39244299630535e-02dB,-7.71138433514149e+01°)
1.51356124843620e+01	(-1.41488863277470e-01dB,-7.94134385485403e+01°)
1.54881661891248e+01	(-2.82889071964163e-01dB,-8.17424796660679e+01°)
1.58489319246111e+01	(-4.38580090973005e-01dB,-8.40949508626309e+01°)
1.62181009735892e+01	(-6.08914892015602e-01dB,-8.64644319777443e+01°)
1.65958690743755e+01	(-7.94134169530821e-01dB,-8.88442011880941e+01°)
1.69824365246174e+01	(-9.94359178691920e-01dB,-9.12273508624369e+01°)
1.73780082874937e+01	(-1.20958806694407e+00dB,-9.36069117622721e+01°)
1.77827941003892e+01	(-1.43969593035628e+00dB,-9.59759800456911e+01°)
1.81970085860998e+01	(-1.68443859120884e+00dB,-9.83278412962185e+01°)
1.86208713666286e+01	(-1.94345985875988e+00dB,-1.00656086048427e+02°)
1.90546071796324e+01	(-2.21630182602242e+00dB,-1.02954711984338e+02°)
1.94984459975804e+01	(-2.50241759255400e+00dB,-1.05218209037562e+02°)
1.99526231496887e+01	(-2.80118570048151e+00dB,-1.07441624933061e+02°)
2.04173794466952e+01	(-3.11192553329574e+00dB,-1.09620610059187e+02°)
2.08929613085403e+01	(-3.43391295084392e+00dB,-1.11751441871851e+02°)
2.13796208950222e+01	(-3.76639550899479e+00dB,-1.13831030152073e+02°)
2.18776162394954e+01	(-4.10860672388464e+00dB,-1.15856905300566e+02°)
2.23872113856833e+01	(-4.45977897218660e+00dB,-1.17827192422520e+02°)
2.29086765276776e+01	(-4.81915475516975e+00dB,-1.19740574236821e+02°)
2.34422881531991e+01	(-5.18599618286552e+00dB,-1.21596245871156e+02°)
2.39883291901948e+01	(-5.55959264654114e+00dB,-1.23393864430272e+02°)
2.45470891568502e+01	(-5.93926673781537e+00dB,-1.25133495909003e+02°)
2.51188643150957e+01	(-6.32437853944023e+00dB,-1.26815561622582e+02°)
2.57039578276885e+01	(-6.71432845693455e+00dB,-1.28440785894569e+02°)
2.63026799189537e+01	(-7.10855878456160e+00dB,-1.30010146316754e+02°)
2.69153480392690e+01	(-7.50655420720203e+00dB,-1.31524827503170e+02°)
2.75422870333815e+01	(-7.90784143537656e+00dB,-1.32986178918600e+02°)
2.81838293126444e+01	(-8.31198815772443e+00dB,-1.34395677078357e+02°)
2.88403150312659e+01	(-8.71860147687819e+00dB,-1.35754892191540e+02°)
2.95120922666637e+01	(-9.12732597352322e+00dB,-1.37065459150708e+02°)
3.01995172040200e+01	(-9.53784152149075e+00dB,-1.38329052650573e+02°)
3.09029543251358e+01	(-9.94986095543012e+00dB,-1.39547366139056e+02°)
3.16227766016837e+01	(-1.03631276728622e+01dB,-1.40722094258030e+02°)
3.23593656929627e+01	(-1.07774132347653e+01dB,-1.41854918410773e+02°)
3.31131121482590e+01	(-1.11925150135188e+01dB,-1.42947495091892e+02°)
3.38844156139201e+01	(-1.16082539240545e+01dB,-1.44001446627805e+02°)
3.46736850452530e+01	(-1.20244722633199e+01dB,-1.45018353997011e+02°)
3.54813389233574e+01	(-1.24410316744527e+01dB,-1.45999751426069e+02°)
3.63078054770100e+01	(-1.28578112451522e+01dB,-1.46947122486431e+02°)
3.71535229097171e+01	(-1.32747057443608e+01dB,-1.47861897447376e+02°)
3.80189396320559e+01	(-1.36916239973020e+01dB,-1.48745451669664e+02°)
3.89045144994279e+01	(-1.41084873959133e+01dB,-1.49599104852421e+02°)
3.98107170553495e+01	(-1.45252285395829e+01dB,-1.50424120971520e+02°)
4.07380277804111e+01	(-1.49417899996490e+01dB,-1.51221708771188e+02°)
4.16869383470333e+01	(-1.53581232002235e+01dB,-1.51993022691446e+02°)
4.26579518801591e+01	(-1.57741874074092e+01dB,-1.52739164132559e+02°)
4.36515832240164e+01	(-1.61899488188114e+01dB,-1.53461182973802e+02°)
4.46683592150961e+01	(-1.66053797453008e+01dB,-1.54160079277911e+02°)
4.57088189614873e+01	(-1.70204578772094e+01dB,-1.54836805124625e+02°)
4.67735141287196e+01	(-1.74351656274790e+01dB,-1.55492266527056e+02°)
4.78630092322636e+01	(-1.78494895446948e+01dB,-1.56127325393345e+02°)
4.89778819368444e+01	(-1.82634197893881e+01dB,-1.56742801503471e+02°)
5.01187233627270e+01	(-1.86769496674721e+01dB,-1.57339474477260e+02°)
5.12861383991362e+01	(-1.90900752151469e+01dB,-1.57918085714834e+02°)
5.24807460249770e+01	(-1.95027948300852e+01dB,-1.58479340295028e+02°)
5.37031796370250e+01	(-1.99151089441566e+01dB,-1.59023908820865e+02°)
5.49540873857622e+01	(-2.03270197333824e+01dB,-1.59552429204108e+02°)
5.62341325190346e+01	(-2.07385308612114e+01dB,-1.60065508383265e+02°)
5.75439937337154e+01	(-2.11496472515866e+01dB,-1.60563723971402e+02°)
5.88843655355586e+01	(-2.15603748886139e+01dB,-1.61047625831652e+02°)
6.02559586074355e+01	(-2.19707206399687e+01dB,-1.61517737579561e+02°)
6.16595001861479e+01	(-2.23806921014591e+01dB,-1.61974558012397e+02°)
6.30957344480190e+01	(-2.27902974604367e+01dB,-1.62418562466338e+02°)
6.45654229034652e+01	(-2.31995453759810e+01dB,-1.62850204103009e+02°)
6.60693448007593e+01	(-2.36084448740022e+01dB,-1.63269915127326e+02°)
6.76082975391978e+01	(-2.40170052556039e+01dB,-1.63678107938906e+02°)
6.91830970918933e+01	(-2.44252360172210e+01dB,-1.64075176219535e+02°)
7.07945784384134e+01	(-2.48331467812113e+01dB,-1.64461495959356e+02°)
7.24435960074986e+01	(-2.52407472357150e+01dB,-1.64837426424493e+02°)
7.41310241300914e+01	(-2.56480470827312e+01dB,-1.65203311068910e+02°)
7.58577575029180e+01	(-2.60550559934687e+01dB,-1.65559478393259e+02°)
7.76247116628688e+01	(-2.64617835701336e+01dB,-1.65906242753474e+02°)
7.94328234724277e+01	(-2.68682393134080e+01dB,-1.66243905121789e+02°)
8.12830516164095e+01	(-2.72744325949534e+01dB,-1.66572753802798e+02°)
8.31763771102667e+01	(-2.76803726343472e+01dB,-1.66893065107079e+02°)
8.51138038202372e+01	(-2.80860684799264e+01dB,-1.67205103984827e+02°)
8.70963589956076e+01	(-2.84915289930669e+01dB,-1.67509124621802e+02°)
8.91250938133741e+01	(-2.88967628354845e+01dB,-1.67805370999847e+02°)
9.12010839355905e+01	(-2.93017784591847e+01dB,-1.68094077424062e+02°)
9.33254300796986e+01	(-2.97065840987316e+01dB,-1.68375469018674e+02°)
9.54992586021431e+01	(-3.01111877655438e+01dB,-1.68649762193486e+02°)
9.77237220955805e+01	(-3.05155972439578e+01dB,-1.68917165082722e+02°)
9.99999999999995e+01	(-3.09198200888253e+01dB,-1.69177877957960e+02°)
1.02329299228075e+02	(-3.13238636244429e+01dB,-1.69432093616763e+02°)
1.04712854805089e+02	(-3.17277349446298e+01dB,-1.69679997748512e+02°)
1.07151930523760e+02	(-3.21314409137937e+01dB,-1.69921769278873e+02°)
1.09647819614318e+02	(-3.25349881688427e+01dB,-1.70157580694215e+02°)
1.12201845430196e+02	(-3.29383831218159e+01dB,-1.70387598347254e+02°)
1.14815362149688e+02	(-3.33416319631219e+01dB,-1.70611982745081e+02°)
1.17489755493952e+02	(-3.37447406652867e+01dB,-1.70830888820692e+02°)
1.20226443461741e+02	(-3.41477149871239e+01dB,-1.71044466189043e+02°)
1.23026877081237e+02	(-3.45505604782506e+01dB,-1.71252859388602e+02°)
1.25892541179416e+02	(-3.49532824838822e+01dB,-1.71456208109311e+02°)
1.28824955169313e+02	(-3.53558861498464e+01dB,-1.71654647407805e+02°)
1.31825673855640e+02	(-3.57583764277640e+01dB,-1.71848307910671e+02°)
1.34896288259165e+02	(-3.61607580803538e+01dB,-1.72037316006516e+02°)
1.38038426460288e+02	(-3.65630356868178e+01dB,-1.72221794027513e+02°)
1.41253754462275e+02	(-3.69652136482768e+01dB,-1.72401860421100e+02°)
1.44543977074592e+02	(-3.73672961932226e+01dB,-1.72577629912422e+02°)
1.47910838816820e+02	(-3.77692873829639e+01dB,-1.72749213658101e+02°)
1.51356124843620e+02	(-3.81711911170422e+01dB,-1.72916719391855e+02°)
1.54881661891247e+02	(-3.85730111385987e+01dB,-1.73080251562474e+02°)
1.58489319246110e+02	(-3.89747510396769e+01dB,-1.73239911464612e+02°)
1.62181009735892e+02	(-3.93764142664461e+01dB,-1.73395797362837e+02°)
1.65958690743755e+02	(-3.97780041243351e+01dB,-1.73548004609340e+02°)
1.69824365246173e+02	(-4.01795237830662e+01dB,-1.73696625755692e+02°)
1.73780082874936e+02	(-4.05809762815823e+01dB,-1.73841750659001e+02°)
1.77827941003891e+02	(-4.09823645328595e+01dB,-1.73983466582801e+02°)
1.81970085860997e+02	(-4.13836913286020e+01dB,-1.74121858292990e+02°)
1.86208713666286e+02	(-4.17849593438139e+01dB,-1.74257008149112e+02°)
1.90546071796323e+02	(-4.21861711412469e+01dB,-1.74388996191243e+02°)
1.94984459975803e+02	(-4.25873291757201e+01dB,-1.74517900222754e+02°)
1.99526231496887e+02	(-4.29884357983126e+01dB,-1.74643795889175e+02°)
2.04173794466952e+02	(-4.33894932604273e+01dB,-1.74766756753401e+02°)
2.08929613085403e+02	(-4.37905037177273e+01dB,-1.74886854367432e+02°)
2.13796208950222e+02	(-4.41914692339443e+01dB,-1.75004158340855e+02°)
2.18776162394954e+02	(-4.45923917845610e+01dB,-1.75118736406258e+02°)
2.23872113856832e+02	(-4.49932732603693e+01dB,-1.75230654481729e+02°)
2.29086765276776e+02	(-4.53941154709053e+01dB,-1.75339976730620e+02°)
2.34422881531991e+02	(-4.57949201477639e+01dB,-1.75446765618725e+02°)
2.39883291901947e+02	(-4.61956889477947e+01dB,-1.75551081969002e+02°)
2.45470891568501e+02	(-4.65964234561830e+01dB,-1.75652985013990e+02°)
2.51188643150956e+02	(-4.69971251894165e+01dB,-1.75752532446034e+02°)
2.57039578276885e+02	(-4.73977955981429e+01dB,-1.75849780465438e+02°)
2.63026799189536e+02	(-4.77984360699190e+01dB,-1.75944783826660e+02°)
2.69153480392690e+02	(-4.81990479318559e+01dB,-1.76037595882653e+02°)
2.75422870333815e+02	(-4.85996324531622e+01dB,-1.76128268627441e+02°)
2.81838293126443e+02	(-4.90001908475894e+01dB,-1.76216852737029e+02°)
2.88403150312659e+02	(-4.94007242757805e+01dB,-1.76303397608736e+02°)
2.95120922666637e+02	(-4.98012338475274e+01dB,-1.76387951399023e+02°)
3.01995172040200e+02	(-5.02017206239374e+01dB,-1.76470561059897e+02°)
3.09029543251357e+02	(-5.06021856195145e+01dB,-1.76551272373961e+02°)
3.16227766016836e+02	(-5.10026298041556e+01dB,-1.76630129988184e+02°)
3.23593656929626e+02	(-5.14030541050671e+01dB,-1.76707177446443e+02°)
3.31131121482589e+02	(-5.18034594086023e+01dB,-1.76782457220905e+02°)
3.38844156139200e+02	(-5.22038465620249e+01dB,-1.76856010742309e+02°)
3.46736850452529e+02	(-5.26042163751988e+01dB,-1.76927878429185e+02°)
3.54813389233573e+02	(-5.30045696222090e+01dB,-1.76998099716085e+02°)
3.63078054770099e+02	(-5.34049070429146e+01dB,-1.77066713080848e+02°)
3.71535229097170e+02	(-5.38052293444373e+01dB,-1.77133756070966e+02°)
3.80189396320558e+02	(-5.42055372025880e+01dB,-1.77199265329075e+02°)
3.89045144994278e+02	(-5.46058312632328e+01dB,-1.77263276617628e+02°)
3.98107170553494e+02	(-5.50061121436018e+01dB,-1.77325824842775e+02°)
4.07380277804110e+02	(-5.54063804335429e+01dB,-1.77386944077495e+02°)
4.16869383470332e+02	(-5.58066366967218e+01dB,-1.77446667584006e+02°)
4.26579518801589e+02	(-5.62068814717715e+01dB,-1.77505027835500e+02°)
4.36515832240163e+02	(-5.66071152733927e+01dB,-1.77562056537213e+02°)
4.46683592150960e+02	(-5.70073385934067e+01dB,-1.77617784646885e+02°)
4.57088189614872e+02	(-5.74075519017640e+01dB,-1.77672242394612e+02°)
4.67735141287195e+02	(-5.78077556475089e+01dB,-1.77725459302140e+02°)
4.78630092322635e+02	(-5.82079502597028e+01dB,-1.77777464201610e+02°)
4.89778819368442e+02	(-5.86081361483079e+01dB,-1.77828285253791e+02°)
5.01187233627268e+02	(-5.90083137050326e+01dB,-1.77877949965816e+02°)
5.12861383991361e+02	(-5.94084833041401e+01dB,-1.77926485208448e+02°)
5.24807460249769e+02	(-5.98086453032221e+01dB,-1.77973917232898e+02°)
5.37031796370249e+02	(-6.02088000439394e+01dB,-1.78020271687213e+02°)
5.49540873857620e+02	(-6.06089478527292e+01dB,-1.78065573632263e+02°)
5.62341325190345e+02	(-6.10090890414829e+01dB,-1.78109847557331e+02°)
5.75439937337152e+02	(-6.14092239081934e+01dB,-1.78153117395346e+02°)
5.88843655355584e+02	(-6.18093527375745e+01dB,-1.78195406537758e+02°)
6.02559586074353e+02	(-6.22094758016532e+01dB,-1.78236737849090e+02°)
6.16595001861477e+02	(-6.26095933603366e+01dB,-1.78277133681168e+02°)
6.30957344480188e+02	(-6.30097056619530e+01dB,-1.78316615887067e+02°)
6.45654229034650e+02	(-6.34098129437700e+01dB,-1.78355205834770e+02°)
6.60693448007591e+02	(-6.38099154324900e+01dB,-1.78392924420572e+02°)
6.76082975391976e+02	(-6.42100133447236e+01dB,-1.78429792082237e+02°)
6.91830970918931e+02	(-6.46101068874424e+01dB,-1.78465828811931e+02°)
7.07945784384132e+02	(-6.50101962584117e+01dB,-1.78501054168946e+02°)
7.24435960074984e+02	(-6.54102816466049e+01dB,-1.78535487292225e+02°)
