Freq.	V(vout)
1.00000000000000e+00	(-2.60662891534035e-03dB,-6.28555647902350e-01°)
1.02329299228075e+00	(-2.09066367002102e-03dB,-6.43235407828976e-01°)
1.04712854805090e+00	(-1.55035209588667e-03dB,-6.58259884508811e-01°)
1.07151930523761e+00	(-9.84543923408055e-04dB,-6.73637306945608e-01°)
1.09647819614318e+00	(-3.92034395913933e-04dB,-6.89376110165123e-01°)
1.12201845430196e+00	(2.28438325102409e-04dB,-7.05484941048919e-01°)
1.14815362149688e+00	(8.78195879487644e-04dB,-7.21972664379267e-01°)
1.17489755493953e+00	(1.55862255899540e-03dB,-7.38848369105427e-01°)
1.20226443461741e+00	(2.27116829528054e-03dB,-7.56121374842494e-01°)
1.23026877081238e+00	(3.01735179213483e-03dB,-7.73801238614606e-01°)
1.25892541179417e+00	(3.79876380915955e-03dB,-7.91897761854872e-01°)
1.28824955169313e+00	(4.61707060420227e-03dB,-8.10420997675606e-01°)
1.31825673855641e+00	(5.47401754264891e-03dB,-8.29381258422883e-01°)
1.34896288259165e+00	(6.37143288171357e-03dB,-8.48789123530615e-01°)
1.38038426460288e+00	(7.31123173857943e-03dB,-8.68655447690236e-01°)
1.41253754462275e+00	(8.29542025145671e-03dB,-8.88991369353233e-01°)
1.44543977074593e+00	(9.32609994335108e-03dB,-9.09808319584851e-01°)
1.47910838816821e+00	(1.04054722986829e-02dB,-9.31118031288462e-01°)
1.51356124843621e+00	(1.15358435634161e-02dB,-9.52932548821631e-01°)
1.54881661891248e+00	(1.27196297802057e-02dB,-9.75264238026024e-01°)
1.58489319246111e+00	(1.39593620702248e-02dB,-9.98125796695253e-01°)
1.62181009735893e+00	(1.52576921744064e-02dB,-1.02153026550584e+00°)
1.65958690743756e+00	(1.66173982673352e-02dB,-1.04549103943887e+00°)
1.69824365246174e+00	(1.80413910576286e-02dB,-1.07002187972138e+00°)
1.73780082874937e+00	(1.95327201896855e-02dB,-1.09513692631867e+00°)
1.77827941003892e+00	(2.10945809622756e-02dB,-1.12085071101130e+00°)
1.81970085860998e+00	(2.27303213804271e-02dB,-1.14717817109211e+00°)
1.86208713666287e+00	(2.44434495578393e-02dB,-1.17413466372237e+00°)
1.90546071796325e+00	(2.62376414884078e-02dB,-1.20173598098775e+00°)
1.94984459975804e+00	(2.81167492057982e-02dB,-1.22999836569862e+00°)
1.99526231496888e+00	(3.00848093519778e-02dB,-1.25893852798224e+00°)
2.04173794466953e+00	(3.21460521759691e-02dB,-1.28857366271769e+00°)
2.08929613085404e+00	(3.43049109860000e-02dB,-1.31892146786847e+00°)
2.13796208950223e+00	(3.65660320791049e-02dB,-1.35000016377165e+00°)
2.18776162394955e+00	(3.89342851739220e-02dB,-1.38182851344717e+00°)
2.23872113856834e+00	(4.14147743738588e-02dB,-1.41442584399533e+00°)
2.29086765276777e+00	(4.40128496894346e-02dB,-1.44781206915580e+00°)
2.34422881531992e+00	(4.67341191503587e-02dB,-1.48200771310781e+00°)
2.39883291901949e+00	(4.95844615397243e-02dB,-1.51703393559620e+00°)
2.45470891568503e+00	(5.25700397847807e-02dB,-1.55291255847569e+00°)
2.51188643150958e+00	(5.56973150407674e-02dB,-1.58966609377257e+00°)
2.57039578276886e+00	(5.89730615066907e-02dB,-1.62731777337062e+00°)
2.63026799189538e+00	(6.24043820141806e-02dB,-1.66589158043772e+00°)
2.69153480392691e+00	(6.59987244335136e-02dB,-1.70541228271715e+00°)
2.75422870333816e+00	(6.97638989433291e-02dB,-1.74590546781988e+00°)
2.81838293126445e+00	(7.37080962139662e-02dB,-1.78739758066336e+00°)
2.88403150312660e+00	(7.78399065572964e-02dB,-1.82991596321591e+00°)
2.95120922666638e+00	(8.21683400996498e-02dB,-1.87348889671778e+00°)
3.01995172040201e+00	(8.67028480381694e-02dB,-1.91814564656548e+00°)
3.09029543251359e+00	(9.14533450449253e-02dB,-1.96391651006092e+00°)
3.16227766016837e+00	(9.64302328876099e-02dB,-2.01083286724467e+00°)
3.23593656929628e+00	(1.01644425340404e-01dB,-2.05892723505138e+00°)
3.31131121482591e+00	(1.07107374463647e-01dB,-2.10823332504602e+00°)
3.38844156139202e+00	(1.12831098336532e-01dB,-2.15878610502276e+00°)
3.46736850452531e+00	(1.18828210333165e-01dB,-2.21062186477292e+00°)
3.54813389233575e+00	(1.25111950038744e-01dB,-2.26377828635560e+00°)
3.63078054770101e+00	(1.31696215909642e-01dB,-2.31829451923580e+00°)
3.71535229097172e+00	(1.38595599788967e-01dB,-2.37421126068704e+00°)
3.80189396320560e+00	(1.45825423397489e-01dB,-2.43157084189276e+00°)
3.89045144994280e+00	(1.53401776928826e-01dB,-2.49041732022083e+00°)
3.98107170553496e+00	(1.61341559887657e-01dB,-2.55079657819093e+00°)
4.07380277804112e+00	(1.69662524320563e-01dB,-2.61275642970288e+00°)
4.16869383470335e+00	(1.78383320600721e-01dB,-2.67634673414990e+00°)
4.26579518801592e+00	(1.87523545940611e-01dB,-2.74161951910038e+00°)
4.36515832240165e+00	(1.97103795820644e-01dB,-2.80862911229987e+00°)
4.46683592150962e+00	(2.07145718537134e-01dB,-2.87743228381919e+00°)
4.57088189614874e+00	(2.17672073089717e-01dB,-2.94808839925822e+00°)
4.67735141287197e+00	(2.28706790646609e-01dB,-3.02065958500690e+00°)
4.78630092322637e+00	(2.40275039846170e-01dB,-3.09521090666906e+00°)
4.89778819368445e+00	(2.52403296215523e-01dB,-3.17181056186962e+00°)
5.01187233627271e+00	(2.65119416011094e-01dB,-3.25053008879417e+00°)
5.12861383991364e+00	(2.78452714812595e-01dB,-3.33144459195606e+00°)
5.24807460249771e+00	(2.92434051231667e-01dB,-3.41463298684573e+00°)
5.37031796370252e+00	(3.07095916128541e-01dB,-3.50017826530112e+00°)
5.49540873857623e+00	(3.22472527766066e-01dB,-3.58816778364066e+00°)
5.62341325190348e+00	(3.38599933369952e-01dB,-3.67869357583256e+00°)
5.75439937337156e+00	(3.55516117607845e-01dB,-3.77185269423220e+00°)
5.88843655355588e+00	(3.73261118548357e-01dB,-3.86774758071487e+00°)
6.02559586074356e+00	(3.91877151714891e-01dB,-3.96648647136180e+00°)
6.16595001861481e+00	(4.11408742908574e-01dB,-4.06818383823601e+00°)
6.30957344480192e+00	(4.31902870541237e-01dB,-4.17296087221122e+00°)
6.45654229034654e+00	(4.53409118292620e-01dB,-4.28094601130479e+00°)
6.60693448007594e+00	(4.75979838988397e-01dB,-4.39227551952031e+00°)
6.76082975391980e+00	(4.99670330686905e-01dB,-4.50709412183986e+00°)
6.91830970918935e+00	(5.24539026064714e-01dB,-4.62555570173081e+00°)
7.07945784384136e+00	(5.50647696305059e-01dB,-4.74782406836389e+00°)
7.24435960074988e+00	(5.78061670821031e-01dB,-4.87407380169406e+00°)
7.41310241300916e+00	(6.06850074288144e-01dB,-5.00449118465598e+00°)
7.58577575029182e+00	(6.37086082621179e-01dB,-5.13927523299348e+00°)
7.76247116628690e+00	(6.68847199710021e-01dB,-5.27863883471124e+00°)
7.94328234724279e+00	(7.02215556931046e-01dB,-5.42281001283351e+00°)
8.12830516164097e+00	(7.37278237678111e-01dB,-5.57203332713219e+00°)
8.31763771102669e+00	(7.74127629412111e-01dB,-5.72657143278388e+00°)
8.51138038202374e+00	(8.12861806017005e-01dB,-5.88670681659826e+00°)
8.70963589956078e+00	(8.53584943573937e-01dB,-6.05274373460227e+00°)
8.91250938133743e+00	(8.96407773031848e-01dB,-6.22501037844635e+00°)
9.12010839355907e+00	(9.41448073666330e-01dB,-6.40386130243460e+00°)
9.33254300796988e+00	(9.88831211684828e-01dB,-6.58968014809476e+00°)
9.54992586021433e+00	(1.03869072886381e+00dB,-6.78288270925124e+00°)
9.77237220955808e+00	(1.09116898669834e+00dB,-6.98392038774676e+00°)
9.99999999999997e+00	(1.14641787221604e+00dB,-7.19328409850112e+00°)
1.02329299228075e+01	(1.20459957236497e+00dB,-7.41150869279730e+00°)
1.04712854805090e+01	(1.26588742473704e+00dB,-7.63917798091289e+00°)
1.07151930523760e+01	(1.33046685334682e+00dB,-7.87693044989600e+00°)
1.09647819614318e+01	(1.39853639925757e+00dB,-8.12546579000996e+00°)
1.12201845430196e+01	(1.47030885704293e+00dB,-8.38555236480825e+00°)
1.14815362149688e+01	(1.54601252939731e+00dB,-8.65803578585320e+00°)
1.17489755493953e+01	(1.62589261366488e+00dB,-8.94384878484946e+00°)
1.20226443461741e+01	(1.71021273563785e+00dB,-9.24402261484512e+00°)
1.23026877081238e+01	(1.79925664766295e+00dB,-9.55970025992413e+00°)
1.25892541179416e+01	(1.89333010985078e+00dB,-9.89215179176994e+00°)
1.28824955169313e+01	(1.99276297493932e+00dB,-1.02427922845179e+01°)
1.31825673855640e+01	(2.09791149900337e+00dB,-1.06132027902027e+01°)
1.34896288259165e+01	(2.20916090154088e+00dB,-1.10051549906803e+01°)
1.38038426460288e+01	(2.32692819920885e+00dB,-1.14206402844516e+01°)
1.41253754462275e+01	(2.45166533716753e+00dB,-1.18619042465111e+01°)
1.44543977074592e+01	(2.58386263991401e+00dB,-1.23314876268431e+01°)
1.47910838816820e+01	(2.72405259855947e+00dB,-1.28322753424668e+01°)
1.51356124843620e+01	(2.87281400207121e+00dB,-1.33675552872494e+01°)
1.54881661891248e+01	(3.03077640352723e+00dB,-1.39410892570607e+01°)
1.58489319246111e+01	(3.19862488504615e+00dB,-1.45571988966332e+01°)
1.62181009735892e+01	(3.37710504083042e+00dB,-1.52208703596963e+01°)
1.65958690743755e+01	(3.56702802758698e+00dB,-1.59378823886636e+01°)
1.69824365246174e+01	(3.76927542142790e+00dB,-1.67149638322229e+01°)
1.73780082874937e+01	(3.98480344847819e+00dB,-1.75599883132856e+01°)
1.77827941003892e+01	(4.21464588907922e+00dB,-1.84822159372915e+01°)
1.81970085860998e+01	(4.45991454005890e+00dB,-1.94925947037530e+01°)
1.86208713666286e+01	(4.72179547383388e+00dB,-2.06041377544581e+01°)
1.90546071796324e+01	(5.00153832856783e+00dB,-2.18323968021239e+01°)
1.94984459975804e+01	(5.30043429979665e+00dB,-2.31960569005460e+01°)
1.99526231496887e+01	(5.61977607082731e+00dB,-2.47176825867406e+01°)
2.04173794466952e+01	(5.96078914562048e+00dB,-2.64246488584877e+01°)
2.08929613085403e+01	(6.32451824197682e+00dB,-2.83502889903966e+01°)
2.13796208950222e+01	(6.71164361723264e+00dB,-3.05352773874964e+01°)
2.18776162394954e+01	(7.12218932620787e+00dB,-3.30292242721120e+01°)
2.23872113856833e+01	(7.55506770833575e+00dB,-3.58923602515841e+01°)
2.29086765276776e+01	(8.00738317375007e+00dB,-3.91969782898554e+01°)
2.34422881531991e+01	(8.47340140877513e+00dB,-4.30278887327682e+01°)
2.39883291901948e+01	(8.94310170598465e+00dB,-4.74804125700160e+01°)
2.45470891568502e+01	(9.40032852512487e+00dB,-5.26533295461853e+01°)
2.51188643150957e+01	(9.82085193026722e+00dB,-5.86330113647064e+01°)
2.57039578276885e+01	(1.01712559043139e+01dB,-6.54650414416152e+01°)
2.63026799189537e+01	(1.04104089512806e+01dB,-7.31139919130619e+01°)
2.69153480392690e+01	(1.04955529474531e+01dB,-8.14238222188201e+01°)
2.75422870333815e+01	(1.03932101907837e+01dB,-9.01063189473972e+01°)
2.81838293126444e+01	(1.00907496805253e+01dB,-9.87840349192368e+01°)
2.88403150312659e+01	(9.60140770336434e+00dB,-1.07080737282186e+02°)
2.95120922666637e+01	(8.95903553054326e+00dB,-1.14711158292343e+02°)
3.01995172040200e+01	(8.20646569563541e+00dB,-1.21522501594845e+02°)
3.09029543251358e+01	(7.38469273333915e+00dB,-1.27481821919993e+02°)
3.16227766016837e+01	(6.52691225616926e+00dB,-1.32636133474842e+02°)
3.23593656929627e+01	(5.65713884912704e+00dB,-1.37072389841695e+02°)
3.31131121482590e+01	(4.79135532638327e+00dB,-1.40889430584712e+02°)
3.38844156139201e+01	(3.93945780005767e+00dB,-1.44182377950536e+02°)
3.46736850452530e+01	(3.10709631614737e+00dB,-1.47035748109286e+02°)
3.54813389233574e+01	(2.29711191612151e+00dB,-1.49521529628365e+02°)
3.63078054770100e+01	(1.51055818024171e+00dB,-1.51699676197733e+02°)
3.71535229097171e+01	(7.47390527684202e-01dB,-1.53619561102177e+02°)
3.80189396320559e+01	(6.91693057365249e-03dB,-1.55321662379282e+02°)
3.89045144994279e+01	(-7.11913545871118e-01dB,-1.56839153242413e+02°)
3.98107170553495e+01	(-1.41032915850888e+00dB,-1.58199279253453e+02°)
4.07380277804111e+01	(-2.08962322518894e+00dB,-1.59424500565267e+02°)
4.16869383470333e+01	(-2.75108631682726e+00dB,-1.60533418011028e+02°)
4.26579518801591e+01	(-3.39596673237172e+00dB,-1.61541515183491e+02°)
4.36515832240164e+01	(-4.02544883273728e+00dB,-1.62461749922458e+02°)
4.46683592150961e+01	(-4.64064254365852e+00dB,-1.63305025130928e+02°)
4.57088189614873e+01	(-5.24257974459968e+00dB,-1.64080563959866e+02°)
4.67735141287196e+01	(-5.83221480796168e+00dB,-1.64796209594880e+02°)
4.78630092322636e+01	(-6.41042754663741e+00dB,-1.65458665685182e+02°)
4.89778819368444e+01	(-6.97802746678989e+00dB,-1.66073690002474e+02°)
5.01187233627270e+01	(-7.53575863372380e+00dB,-1.66646251160309e+02°)
5.12861383991362e+01	(-8.08430472321309e+00dB,-1.67180656059990e+02°)
5.24807460249770e+01	(-8.62429400068475e+00dB,-1.67680654045326e+02°)
5.37031796370250e+01	(-9.15630407963091e+00dB,-1.68149522444705e+02°)
5.49540873857622e+01	(-9.68086638002250e+00dB,-1.68590137170505e+02°)
5.62341325190346e+01	(-1.01984702512230e+01dB,-1.69005031265523e+02°)
5.75439937337154e+01	(-1.07095667509595e+01dB,-1.69396443681048e+02°)
5.88843655355586e+01	(-1.12145720881727e+01dB,-1.69766360100720e+02°)
6.02559586074355e+01	(-1.17138707468643e+01dB,-1.70116547257167e+02°)
6.16595001861479e+01	(-1.22078183129021e+01dB,-1.70448581900881e+02°)
6.30957344480190e+01	(-1.26967440277666e+01dB,-1.70763875354550e+02°)
6.45654229034652e+01	(-1.31809530935038e+01dB,-1.71063694407430e+02°)
6.60693448007593e+01	(-1.36607287523884e+01dB,-1.71349179162558e+02°)
6.76082975391978e+01	(-1.41363341634518e+01dB,-1.71621358336653e+02°)
6.91830970918933e+01	(-1.46080140963845e+01dB,-1.71881162422167e+02°)
7.07945784384134e+01	(-1.50759964615647e+01dB,-1.72129435048274e+02°)
7.24435960074986e+01	(-1.55404936932098e+01dB,-1.72366942818942e+02°)
7.41310241300914e+01	(-1.60017040009617e+01dB,-1.72594383858694e+02°)
7.58577575029180e+01	(-1.64598125036390e+01dB,-1.72812395257990e+02°)
7.76247116628688e+01	(-1.69149922574357e+01dB,-1.73021559578539e+02°)
7.94328234724277e+01	(-1.73674051895241e+01dB,-1.73222410552938e+02°)
8.12830516164095e+01	(-1.78172029468255e+01dB,-1.73415438091685e+02°)
8.31763771102667e+01	(-1.82645276686454e+01dB,-1.73601092692983e+02°)
8.51138038202372e+01	(-1.87095126909123e+01dB,-1.73779789336125e+02°)
8.70963589956076e+01	(-1.91522831889091e+01dB,-1.73951910927072e+02°)
8.91250938133741e+01	(-1.95929567646338e+01dB,-1.74117811354709e+02°)
9.12010839355905e+01	(-2.00316439842532e+01dB,-1.74277818207706e+02°)
9.33254300796986e+01	(-2.04684488705219e+01dB,-1.74432235194814e+02°)
9.54992586021431e+01	(-2.09034693545129e+01dB,-1.74581344305364e+02°)
9.77237220955805e+01	(-2.13367976905411e+01dB,-1.74725407741651e+02°)
9.99999999999995e+01	(-2.17685208377477e+01dB,-1.74864669650596e+02°)
1.02329299228075e+02	(-2.21987208114507e+01dB,-1.74999357678358e+02°)
1.04712854805089e+02	(-2.26274750070395e+01dB,-1.75129684368495e+02°)
1.07151930523760e+02	(-2.30548564989080e+01dB,-1.75255848421552e+02°)
1.09647819614318e+02	(-2.34809343166636e+01dB,-1.75378035831704e+02°)
1.12201845430196e+02	(-2.39057737006233e+01dB,-1.75496420914085e+02°)
1.14815362149688e+02	(-2.43294363384076e+01dB,-1.75611167234752e+02°)
1.17489755493952e+02	(-2.47519805842623e+01dB,-1.75722428453778e+02°)
1.20226443461741e+02	(-2.51734616625800e+01dB,-1.75830349090688e+02°)
1.23026877081237e+02	(-2.55939318569486e+01dB,-1.75935065220375e+02°)
1.25892541179416e+02	(-2.60134406859296e+01dB,-1.76036705106656e+02°)
1.28824955169313e+02	(-2.64320350666527e+01dB,-1.76135389779841e+02°)
1.31825673855640e+02	(-2.68497594672112e+01dB,-1.76231233563897e+02°)
1.34896288259165e+02	(-2.72666560487561e+01dB,-1.76324344558246e+02°)
1.38038426460288e+02	(-2.76827647980966e+01dB,-1.76414825078597e+02°)
1.41253754462275e+02	(-2.80981236515505e+01dB,-1.76502772060784e+02°)
1.44543977074592e+02	(-2.85127686107143e+01dB,-1.76588277431132e+02°)
1.47910838816820e+02	(-2.89267338507679e+01dB,-1.76671428446500e+02°)
1.51356124843620e+02	(-2.93400518218736e+01dB,-1.76752308006820e+02°)
1.54881661891247e+02	(-2.97527533441809e+01dB,-1.76830994942660e+02°)
1.58489319246110e+02	(-3.01648676969041e+01dB,-1.76907564280075e+02°)
1.62181009735892e+02	(-3.05764227019026e+01dB,-1.76982087484787e+02°)
1.65958690743755e+02	(-3.09874448021556e+01dB,-1.77054632687518e+02°)
1.69824365246173e+02	(-3.13979591354910e+01dB,-1.77125264892147e+02°)
1.73780082874936e+02	(-3.18079896039012e+01dB,-1.77194046168154e+02°)
1.77827941003891e+02	(-3.22175589387481e+01dB,-1.77261035828725e+02°)
1.81970085860997e+02	(-3.26266887621388e+01dB,-1.77326290595715e+02°)
1.86208713666286e+02	(-3.30353996447288e+01dB,-1.77389864752583e+02°)
1.90546071796323e+02	(-3.34437111601926e+01dB,-1.77451810286293e+02°)
1.94984459975803e+02	(-3.38516419365785e+01dB,-1.77512177019094e+02°)
1.99526231496887e+02	(-3.42592097047535e+01dB,-1.77571012730992e+02°)
2.04173794466952e+02	(-3.46664313441241e+01dB,-1.77628363273680e+02°)
2.08929613085403e+02	(-3.50733229258068e+01dB,-1.77684272676594e+02°)
2.13796208950222e+02	(-3.54798997534110e+01dB,-1.77738783245725e+02°)
2.18776162394954e+02	(-3.58861764015810e+01dB,-1.77791935655751e+02°)
2.23872113856832e+02	(-3.62921667524379e+01dB,-1.77843769036007e+02°)
2.29086765276776e+02	(-3.66978840300488e+01dB,-1.77894321050775e+02°)
2.34422881531991e+02	(-3.71033408330432e+01dB,-1.77943627974309e+02°)
2.39883291901947e+02	(-3.75085491654889e+01dB,-1.77991724761012e+02°)
2.45470891568501e+02	(-3.79135204661288e+01dB,-1.78038645111116e+02°)
2.51188643150956e+02	(-3.83182656360781e+01dB,-1.78084421532201e+02°)
2.57039578276885e+02	(-3.87227950650696e+01dB,-1.78129085396859e+02°)
2.63026799189536e+02	(-3.91271186563325e+01dB,-1.78172666996786e+02°)
2.69153480392690e+02	(-3.95312458501831e+01dB,-1.78215195593561e+02°)
2.75422870333815e+02	(-3.99351856464002e+01dB,-1.78256699466340e+02°)
2.81838293126443e+02	(-4.03389466254548e+01dB,-1.78297205956702e+02°)
2.88403150312659e+02	(-4.07425369686575e+01dB,-1.78336741510825e+02°)
2.95120922666637e+02	(-4.11459644772847e+01dB,-1.78375331719205e+02°)
3.01995172040200e+02	(-4.15492365907388e+01dB,-1.78413001354063e+02°)
3.09029543251357e+02	(-4.19523604037975e+01dB,-1.78449774404616e+02°)
3.16227766016836e+02	(-4.23553426829989e+01dB,-1.78485674110350e+02°)
3.23593656929626e+02	(-4.27581898822116e+01dB,-1.78520722992437e+02°)
3.31131121482589e+02	(-4.31609081574326e+01dB,-1.78554942883410e+02°)
3.38844156139200e+02	(-4.35635033808541e+01dB,-1.78588354955222e+02°)
3.46736850452529e+02	(-4.39659811542380e+01dB,-1.78620979745794e+02°)
3.54813389233573e+02	(-4.43683468216353e+01dB,-1.78652837184140e+02°)
3.63078054770099e+02	(-4.47706054814833e+01dB,-1.78683946614183e+02°)
3.71535229097170e+02	(-4.51727619981147e+01dB,-1.78714326817325e+02°)
3.80189396320558e+02	(-4.55748210127078e+01dB,-1.78743996033863e+02°)
3.89045144994278e+02	(-4.59767869537073e+01dB,-1.78772971983321e+02°)
3.98107170553494e+02	(-4.63786640467421e+01dB,-1.78801271883766e+02°)
4.07380277804110e+02	(-4.67804563240667e+01dB,-1.78828912470172e+02°)
4.16869383470332e+02	(-4.71821676335497e+01dB,-1.78855910011889e+02°)
4.26579518801589e+02	(-4.75838016472326e+01dB,-1.78882280329280e+02°)
4.36515832240163e+02	(-4.79853618694801e+01dB,-1.78908038809562e+02°)
4.46683592150960e+02	(-4.83868516447431e+01dB,-1.78933200421915e+02°)
4.57088189614872e+02	(-4.87882741649527e+01dB,-1.78957779731892e+02°)
4.67735141287195e+02	(-4.91896324765642e+01dB,-1.78981790915179e+02°)
4.78630092322635e+02	(-4.95909294872689e+01dB,-1.79005247770736e+02°)
4.89778819368442e+02	(-4.99921679723883e+01dB,-1.79028163733362e+02°)
5.01187233627268e+02	(-5.03933505809686e+01dB,-1.79050551885714e+02°)
5.12861383991361e+02	(-5.07944798415876e+01dB,-1.79072424969817e+02°)
5.24807460249769e+02	(-5.11955581678912e+01dB,-1.79093795398079e+02°)
5.37031796370249e+02	(-5.15965878638690e+01dB,-1.79114675263866e+02°)
5.49540873857620e+02	(-5.19975711288844e+01dB,-1.79135076351632e+02°)
5.62341325190345e+02	(-5.23985100624706e+01dB,-1.79155010146650e+02°)
5.75439937337152e+02	(-5.27994066689018e+01dB,-1.79174487844361e+02°)
5.88843655355584e+02	(-5.32002628615536e+01dB,-1.79193520359356e+02°)
6.02559586074353e+02	(-5.36010804670596e+01dB,-1.79212118334022e+02°)
6.16595001861477e+02	(-5.40018612292760e+01dB,-1.79230292146860e+02°)
6.30957344480188e+02	(-5.44026068130627e+01dB,-1.79248051920505e+02°)
6.45654229034650e+02	(-5.48033188078893e+01dB,-1.79265407529448e+02°)
6.60693448007591e+02	(-5.52039987312747e+01dB,-1.79282368607494e+02°)
6.76082975391976e+02	(-5.56046480320679e+01dB,-1.79298944554961e+02°)
6.91830970918931e+02	(-5.60052680935784e+01dB,-1.79315144545635e+02°)
7.07945784384132e+02	(-5.64058602365613e+01dB,-1.79330977533492e+02°)
7.24435960074984e+02	(-5.68064257220661e+01dB,-1.79346452259211e+02°)
